!    2/6/2023   2:23:51 PM 
! Ref Plane: 0.000 mm
# MHZ S MA R  50
!
1.0000        0.96162       136.48        6.777E-4      -23.58        5.336E-4      -25.73        1.0004        -4.13          
1.0140        0.96171       135.92        5.93E-4       -27.50        5.139E-4      -21.02        1.00045       -4.19          
1.0280        0.96166       135.39        5.543E-4      -25.42        5.642E-4      -20.29        1.00056       -4.25          
1.0420        0.96165       134.84        5.604E-4      -28.13        6.336E-4      -26.40        1.00041       -4.31          
1.0560        0.96173       134.29        6.609E-4      -26.86        6.245E-4      -16.03        1.00043       -4.37          
1.0700        0.9621        133.78        5.862E-4      -22.07        6.837E-4      -29.30        1.00069       -4.40          
1.0840        0.96174       133.22        7.421E-4      -15.26        5.643E-4      -25.52        1.00042       -4.48          
1.0980        0.96191       132.68        7.406E-4      -19.05        6.699E-4      -32.04        1.00046       -4.54          
1.1120        0.96187       132.15        6.398E-4      -14.82        6.449E-4      -24.40        1.00049       -4.59          
1.1260        0.9619        131.62        6.949E-4      -22.36        7.06E-4       -23.68        1.00051       -4.65          
1.1400        0.96203       131.09        7.667E-4      -26.96        7.557E-4      -22.62        1.00051       -4.71          
1.1540        0.962         130.56        8.40E-4       -24.89        7.134E-4      -24.55        1.00056       -4.77          
1.1680        0.96207       130.03        8.024E-4      -20.42        8.033E-4      -26.21        1.00055       -4.83          
1.1820        0.96174       129.50        8.292E-4      -20.36        8.595E-4      -26.77        1.0006        -4.92          
1.1960        0.96281       128.98        7.729E-4      -20.29        7.848E-4      -29.54        1.00083       -4.92          
1.2100        0.96221       128.47        8.38E-4       -26.36        8.211E-4      -29.52        1.0006        -5.01          
1.2240        0.96232       127.96        8.925E-4      -27.09        8.246E-4      -23.63        1.00065       -5.06          
1.2380        0.96246       127.44        7.38E-4       -30.07        8.528E-4      -27.28        1.00069       -5.12          
1.2520        0.96251       126.93        8.905E-4      -26.39        9.26E-4       -23.92        1.00058       -5.18          
1.2660        0.96245       126.42        9.477E-4      -23.08        8.365E-4      -26.80        1.00077       -5.24          
1.2800        0.96251       125.92        8.711E-4      -27.95        8.923E-4      -29.57        1.00038       -5.32          
1.2940        0.96264       125.40        9.453E-4      -28.95        9.161E-4      -32.53        1.00075       -5.36          
1.3080        0.96266       124.88        1.008E-3      -24.89        9.726E-4      -30.98        1.00038       -5.45          
1.3220        0.9627        124.38        9.604E-4      -27.41        1.043E-3      -29.51        1.00045       -5.49          
1.3360        0.96273       123.86        9.457E-4      -31.09        1.096E-3      -34.14        1.00108       -5.59          
1.3500        0.9643        123.38        1.064E-3      -29.30        1.049E-3      -28.88        1.00039       -5.59          
1.3640        0.96269       122.89        1.014E-3      -27.14        9.657E-4      -28.23        1.00048       -5.66          
1.3780        0.96348       122.39        1.008E-3      -29.58        1.096E-3      -29.19        1.0008        -5.72          
1.3920        0.96327       121.91        1.127E-3      -31.83        1.105E-3      -29.97        1.00056       -5.79          
1.4060        0.96325       121.42        1.137E-3      -24.30        1.08E-3       -31.66        1.00056       -5.85          
1.4200        0.96337       120.94        1.116E-3      -30.92        1.15E-3       -30.93        1.00057       -5.91          
1.4340        0.96361       120.45        1.151E-3      -32.08        1.161E-3      -29.43        1.00058       -5.97          
1.4480        0.96359       119.97        1.138E-3      -26.27        1.128E-3      -33.47        1.0005        -6.03          
1.4620        0.96358       119.48        1.156E-3      -26.24        1.203E-3      -32.17        1.00047       -6.10          
1.4760        0.96377       119.01        1.131E-3      -34.20        1.149E-3      -29.28        1.00044       -6.15          
1.4900        0.96385       118.54        1.16E-3       -32.50        1.26E-3       -34.36        1.00041       -6.21          
1.5040        0.96402       118.06        1.247E-3      -31.05        1.296E-3      -32.07        1.0004        -6.28          
1.5180        0.964         117.59        1.331E-3      -34.60        1.201E-3      -31.70        1.00047       -6.34          
1.5320        0.9641        117.12        1.391E-3      -32.57        1.302E-3      -37.12        1.00039       -6.40          
1.5460        0.96416       116.65        1.191E-3      -35.87        1.302E-3      -34.24        1.00033       -6.47          
1.5600        0.96426       116.19        1.31E-3       -30.73        1.324E-3      -33.67        1.00041       -6.52          
1.5740        0.96446       115.73        1.341E-3      -33.05        1.204E-3      -35.26        1.00041       -6.58          
1.5880        0.96452       115.27        1.406E-3      -36.45        1.383E-3      -31.46        1.00031       -6.65          
1.6020        0.96471       114.80        1.387E-3      -36.26        1.393E-3      -38.10        1.00039       -6.71          
1.6160        0.96479       114.35        1.381E-3      -32.06        1.382E-3      -34.40        1.00035       -6.77          
1.6300        0.96483       113.90        1.443E-3      -35.52        1.44E-3       -35.99        1.00037       -6.84          
1.6440        0.96497       113.45        1.427E-3      -36.46        1.508E-3      -33.67        1.0004        -6.90          
1.6580        0.96506       113.00        1.422E-3      -36.04        1.528E-3      -35.63        1.00027       -6.96          
1.6720        0.96519       112.55        1.552E-3      -33.24        1.544E-3      -36.06        1.00016       -7.02          
1.6860        0.96526       112.10        1.493E-3      -38.76        1.54E-3       -34.55        1.00027       -7.09          
1.7000        0.96544       111.66        1.557E-3      -36.77        1.633E-3      -37.13        1.00035       -7.15          
1.7140        0.96552       111.22        1.555E-3      -35.44        1.606E-3      -35.06        1.00026       -7.21          
1.7280        0.96561       110.78        1.587E-3      -36.50        1.652E-3      -36.75        1.00027       -7.27          
1.7420        0.96582       110.34        1.671E-3      -37.18        1.666E-3      -38.87        1.00018       -7.34          
1.7560        0.96577       109.90        1.71E-3       -38.32        1.642E-3      -39.05        1.00023       -7.40          
1.7700        0.96604       109.47        1.684E-3      -38.54        1.62E-3       -38.50        1.00025       -7.46          
1.7840        0.96612       109.06        1.713E-3      -32.71        1.712E-3      -40.31        0.99978       -7.52          
1.7980        0.96625       108.62        1.716E-3      -39.54        1.781E-3      -39.68        1.00017       -7.60          
1.8120        0.96627       108.19        1.86E-3       -40.70        1.754E-3      -39.63        1.00021       -7.65          
1.8260        0.96648       107.76        1.808E-3      -38.27        1.791E-3      -40.73        1.00013       -7.72          
1.8400        0.96661       107.34        1.90E-3       -37.64        1.779E-3      -38.88        1.00021       -7.79          
1.8540        0.96673       106.92        1.787E-3      -37.22        1.869E-3      -38.12        1.0001        -7.86          
1.8680        0.96682       106.50        1.768E-3      -38.24        1.892E-3      -39.68        1.00011       -7.92          
1.8820        0.96688       106.08        1.852E-3      -39.91        1.886E-3      -40.37        1.00011       -7.98          
1.8960        0.96701       105.67        1.857E-3      -41.11        1.829E-3      -39.45        1.00006       -8.05          
1.9100        0.96727       105.26        1.946E-3      -36.84        1.861E-3      -40.14        1.00009       -8.12          
1.9240        0.96735       104.85        2.016E-3      -39.70        1.894E-3      -40.10        1.0001        -8.18          
1.9380        0.96744       104.43        2.009E-3      -39.26        2.029E-3      -39.06        1.00008       -8.25          
1.9520        0.96741       104.03        2.074E-3      -40.39        1.968E-3      -40.18        1.00001       -8.31          
1.9660        0.9676        103.63        2.037E-3      -41.91        1.98E-3       -39.72        1.00002       -8.38          
1.9800        0.96766       103.23        2.054E-3      -42.07        1.975E-3      -42.29        1.00001       -8.44          
1.9940        0.96786       102.83        2.032E-3      -39.83        2.144E-3      -42.01        0.99995       -8.51          
2.0080        0.96789       102.43        2.072E-3      -41.05        2.089E-3      -41.31        1.00001       -8.58          
2.0220        0.96804       102.03        2.109E-3      -39.05        2.117E-3      -43.60        0.99999       -8.65          
2.0360        0.9682        101.64        2.126E-3      -44.18        2.123E-3      -40.87        1.00          -8.71          
2.0500        0.96828       101.25        2.228E-3      -42.16        2.202E-3      -43.93        0.99993       -8.78          
2.0640        0.96838       100.86        2.207E-3      -42.29        2.269E-3      -44.64        0.99992       -8.85          
2.0780        0.96853       100.46        2.204E-3      -43.67        2.223E-3      -42.61        0.99995       -8.92          
2.0920        0.96873       100.08        2.254E-3      -43.53        2.254E-3      -43.59        0.99993       -8.99          
2.1060        0.96873       99.70         2.162E-3      -42.75        2.284E-3      -44.78        0.99988       -9.06          
2.1200        0.96892       99.31         2.296E-3      -42.30        2.305E-3      -44.54        0.99998       -9.13          
2.1340        0.96906       98.94         2.299E-3      -41.99        2.354E-3      -44.71        0.99997       -9.20          
2.1480        0.96919       98.56         2.354E-3      -43.43        2.396E-3      -42.41        0.99983       -9.27          
2.1620        0.9693        98.19         2.363E-3      -43.41        2.491E-3      -45.97        0.99987       -9.33          
2.1760        0.96934       97.82         2.436E-3      -42.86        2.381E-3      -44.24        0.99983       -9.41          
2.1900        0.96951       97.43         2.449E-3      -44.15        2.488E-3      -44.80        0.9999        -9.48          
2.2040        0.96962       97.07         2.361E-3      -43.74        2.489E-3      -43.18        0.99991       -9.55          
2.2180        0.96966       96.70         2.542E-3      -43.43        2.604E-3      -47.76        0.99984       -9.62          
2.2320        0.9699        96.33         2.541E-3      -44.07        2.619E-3      -46.03        0.99986       -9.69          
2.2460        0.96997       95.97         2.528E-3      -45.51        2.608E-3      -44.81        0.99981       -9.77          
2.2600        0.9701        95.60         2.69E-3       -46.33        2.666E-3      -46.66        0.99971       -9.83          
2.2740        0.97024       95.24         2.617E-3      -46.05        2.662E-3      -45.77        0.99977       -9.90          
2.2880        0.97029       94.88         2.66E-3       -45.25        2.706E-3      -48.96        0.9998        -9.98          
2.3020        0.97051       94.52         2.725E-3      -46.56        2.678E-3      -46.19        0.99974       -10.05         
2.3160        0.97069       94.17         2.739E-3      -43.55        2.752E-3      -47.38        0.99973       -10.12         
2.3300        0.97077       93.82         2.737E-3      -47.81        2.795E-3      -47.81        0.99969       -10.20         
2.3440        0.9709        93.47         2.724E-3      -46.22        2.764E-3      -46.91        0.99972       -10.27         
2.3580        0.9709        93.12         2.873E-3      -46.32        2.803E-3      -48.73        0.99973       -10.34         
2.3720        0.97104       92.78         2.888E-3      -47.69        2.857E-3      -47.22        0.99955       -10.42         
2.3860        0.9711        92.43         2.823E-3      -47.73        2.731E-3      -48.71        0.99961       -10.49         
2.4000        0.9713        92.08         2.927E-3      -47.61        2.94E-3       -48.06        0.99955       -10.56         
2.4140        0.97142       91.74         2.919E-3      -49.13        2.994E-3      -49.47        0.99959       -10.64         
2.4280        0.97158       91.40         2.993E-3      -49.34        2.961E-3      -50.23        0.99955       -10.71         
2.4420        0.97161       91.06         2.982E-3      -48.90        2.959E-3      -49.23        0.99953       -10.79         
2.4560        0.97174       90.72         2.979E-3      -49.34        3.019E-3      -49.58        0.99954       -10.86         
2.4700        0.97189       90.38         3.08E-3       -49.41        3.106E-3      -48.98        0.99946       -10.95         
2.4840        0.97196       90.05         3.144E-3      -47.46        3.027E-3      -49.18        0.99961       -11.02         
2.4980        0.97209       89.72         3.047E-3      -48.88        3.102E-3      -50.81        0.99958       -11.10         
2.5120        0.97226       89.39         3.143E-3      -49.22        3.087E-3      -50.16        0.99949       -11.18         
2.5260        0.97243       89.06         3.199E-3      -49.68        3.284E-3      -49.54        0.99955       -11.25         
2.5400        0.97243       88.73         3.214E-3      -49.92        3.246E-3      -49.21        0.99946       -11.33         
2.5540        0.97254       88.41         3.256E-3      -50.39        3.283E-3      -50.27        0.9995        -11.41         
2.5680        0.97267       88.07         3.242E-3      -52.11        3.252E-3      -50.25        0.99929       -11.48         
2.5820        0.97277       87.78         3.302E-3      -50.69        3.436E-3      -51.31        0.99966       -11.56         
2.5960        0.97301       87.44         3.347E-3      -51.21        3.305E-3      -51.28        0.99976       -11.66         
2.6100        0.97387       87.15         3.478E-3      -50.77        3.339E-3      -52.39        0.99901       -11.69         
2.6240        0.97254       86.85         3.46E-3       -49.93        3.416E-3      -52.06        1.00034       -11.84         
2.6380        0.97324       86.50         3.446E-3      -51.26        3.44E-3       -52.98        0.99952       -11.88         
2.6520        0.97809       86.30         3.497E-3      -52.27        3.63E-3       -50.93        1.00315       -12.05         
2.6660        0.97482       85.86         3.536E-3      -51.28        3.479E-3      -51.72        1.00099       -12.04         
2.6800        0.97511       85.46         3.582E-3      -51.61        3.61E-3       -52.57        1.00095       -12.17         
2.6940        0.97234       85.52         3.654E-3      -51.44        3.586E-3      -51.76        0.99801       -12.06         
2.7080        0.97095       84.61         3.582E-3      -52.56        3.503E-3      -53.22        0.99599       -12.27         
2.7220        0.97166       84.41         3.569E-3      -52.51        3.579E-3      -52.50        0.99764       -12.31         
2.7360        0.97142       84.17         3.616E-3      -52.73        3.646E-3      -53.18        0.99809       -12.37         
2.7500        0.97226       83.87         3.665E-3      -51.91        3.71E-3       -53.78        0.99793       -12.51         
2.7640        0.97321       83.61         3.778E-3      -53.09        3.773E-3      -51.92        0.99852       -12.60         
2.7780        0.97367       83.34         3.80E-3       -53.08        3.79E-3       -53.61        0.99885       -12.69         
2.7920        0.97381       83.08         3.774E-3      -53.52        3.819E-3      -53.56        0.99904       -12.78         
2.8060        0.97417       82.80         3.774E-3      -54.46        3.837E-3      -53.02        0.99908       -12.87         
2.8200        0.97439       82.52         3.882E-3      -55.32        3.912E-3      -53.77        0.99898       -12.96         
2.8340        0.97456       82.23         3.937E-3      -53.34        3.909E-3      -54.45        0.99915       -13.04         
2.8480        0.97481       81.94         4.041E-3      -54.76        4.049E-3      -55.85        0.99919       -13.13         
2.8620        0.97491       81.66         3.996E-3      -54.59        4.036E-3      -56.21        0.99915       -13.21         
2.8760        0.97502       81.37         4.101E-3      -54.73        4.043E-3      -55.83        0.99914       -13.30         
2.8900        0.97514       81.07         4.057E-3      -55.18        4.129E-3      -54.39        0.99915       -13.39         
2.9040        0.97532       80.79         4.14E-3       -54.66        4.123E-3      -55.72        0.99923       -13.48         
2.9180        0.97554       80.51         4.09E-3       -55.75        4.178E-3      -56.16        0.99911       -13.57         
2.9320        0.97541       80.22         4.179E-3      -55.43        4.167E-3      -54.78        0.99916       -13.66         
2.9460        0.97559       79.94         4.298E-3      -55.96        4.254E-3      -55.82        0.99914       -13.75         
2.9600        0.97586       79.67         4.252E-3      -55.61        4.276E-3      -56.56        0.99907       -13.84         
2.9740        0.97443       79.42         4.339E-3      -55.63        4.254E-3      -56.07        0.99848       -13.90         
2.9880        0.97593       79.11         4.272E-3      -56.89        4.293E-3      -55.31        0.99906       -14.02         
3.0020        0.97605       78.83         4.278E-3      -56.88        4.329E-3      -58.28        0.99902       -14.12         
3.0160        0.97615       78.56         4.399E-3      -55.93        4.475E-3      -58.60        0.99904       -14.21         
3.0300        0.97628       78.28         4.474E-3      -57.32        4.377E-3      -55.69        0.99896       -14.30         
3.0440        0.9764        78.01         4.432E-3      -57.85        4.452E-3      -55.93        0.99899       -14.39         
3.0580        0.97654       77.74         4.563E-3      -56.22        4.557E-3      -57.36        0.99898       -14.49         
3.0720        0.97655       77.47         4.569E-3      -58.08        4.63E-3       -57.31        0.99889       -14.58         
3.0860        0.97664       77.20         4.657E-3      -57.30        4.615E-3      -57.64        0.99891       -14.67         
3.1000        0.97675       76.93         4.637E-3      -57.19        4.593E-3      -59.25        0.99888       -14.77         
3.1140        0.97684       76.67         4.75E-3       -57.83        4.744E-3      -57.77        0.99879       -14.87         
3.1280        0.97702       76.41         4.783E-3      -58.55        4.812E-3      -57.19        0.9989        -14.96         
3.1420        0.97712       76.14         4.783E-3      -59.00        4.778E-3      -59.00        0.99888       -15.06         
3.1560        0.97721       75.88         4.879E-3      -58.81        4.769E-3      -57.91        0.99884       -15.16         
